<Qucs Dataset 0.0.19>
<indep UG 3>
  +0.00000000000000000000e+000
  +5.00000000000000000000e+000
  +1.00000000000000000000e+001
</indep>
<indep R 5>
  +5.00000000000000000000e+002
  +7.50000000000000000000e+002
  +1.00000000000000000000e+003
  +1.25000000000000000000e+003
  +1.50000000000000000000e+003
</indep>
<dep I UG R>
  -0.00000000000000000000e+000
  +1.00000000000000002082e-002
  +2.00000000000000004163e-002
  -0.00000000000000000000e+000
  +6.66666666666666622720e-003
  +1.33333333333333324544e-002
  -0.00000000000000000000e+000
  +5.00000000000000010408e-003
  +1.00000000000000002082e-002
  -0.00000000000000000000e+000
  +4.00000000000000008327e-003
  +8.00000000000000016653e-003
  -0.00000000000000000000e+000
  +3.33333333333333311360e-003
  +6.66666666666666622720e-003
</dep>
<dep V1.I UG R>
  +0.00000000000000000000e+000
  -1.00000000000000002082e-002
  -2.00000000000000004163e-002
  +0.00000000000000000000e+000
  -6.66666666666666622720e-003
  -1.33333333333333324544e-002
  +0.00000000000000000000e+000
  -5.00000000000000010408e-003
  -1.00000000000000002082e-002
  +0.00000000000000000000e+000
  -4.00000000000000008327e-003
  -8.00000000000000016653e-003
  +0.00000000000000000000e+000
  -3.33333333333333311360e-003
  -6.66666666666666622720e-003
</dep>
<dep _net0.V UG R>
  +0.00000000000000000000e+000
  +5.00000000000000000000e+000
  +1.00000000000000000000e+001
  +0.00000000000000000000e+000
  +5.00000000000000000000e+000
  +1.00000000000000000000e+001
  +0.00000000000000000000e+000
  +5.00000000000000000000e+000
  +1.00000000000000000000e+001
  +0.00000000000000000000e+000
  +5.00000000000000000000e+000
  +1.00000000000000000000e+001
  +0.00000000000000000000e+000
  +5.00000000000000000000e+000
  +1.00000000000000000000e+001
</dep>
