<Qucs Dataset 0.0.19>
<indep I 200>
  +0.00000000000000000000e+000
  +5.02512562814070402537e-004
  +1.00502512562814080507e-003
  +1.50753768844221120761e-003
  +2.01005025125628161015e-003
  +2.51256281407035179584e-003
  +3.01507537688442241522e-003
  +3.51758793969849260092e-003
  +4.02010050251256322029e-003
  +4.52261306532663383967e-003
  +5.02512562814070359168e-003
  +5.52763819095477421106e-003
  +6.03015075376884483044e-003
  +6.53266331658291458245e-003
  +7.03517587939698520183e-003
  +7.53768844221105582121e-003
  +8.04020100502512644058e-003
  +8.54271356783919619260e-003
  +9.04522613065326767934e-003
  +9.54773869346733743135e-003
  +1.00502512562814071834e-002
  +1.05527638190954786701e-002
  +1.10552763819095484221e-002
  +1.15577889447236181741e-002
  +1.20603015075376896609e-002
  +1.25628140703517594129e-002
  +1.30653266331658291649e-002
  +1.35678391959799006516e-002
  +1.40703517587939704037e-002
  +1.45728643216080401557e-002
  +1.50753768844221116424e-002
  +1.55778894472361813944e-002
  +1.60804020100502528812e-002
  +1.65829145728643226332e-002
  +1.70854271356783923852e-002
  +1.75879396984924621372e-002
  +1.80904522613065353587e-002
  +1.85929648241206051107e-002
  +1.90954773869346748627e-002
  +1.95979899497487446147e-002
  +2.01005025125628143667e-002
  +2.06030150753768841188e-002
  +2.11055276381909573402e-002
  +2.16080402010050270922e-002
  +2.21105527638190968442e-002
  +2.26130653266331665963e-002
  +2.31155778894472363483e-002
  +2.36180904522613095697e-002
  +2.41206030150753793218e-002
  +2.46231155778894490738e-002
  +2.51256281407035188258e-002
  +2.56281407035175885778e-002
  +2.61306532663316583298e-002
  +2.66331658291457315513e-002
  +2.71356783919598013033e-002
  +2.76381909547738710553e-002
  +2.81407035175879408073e-002
  +2.86432160804020105593e-002
  +2.91457286432160803114e-002
  +2.96482412060301535328e-002
  +3.01507537688442232848e-002
  +3.06532663316582930368e-002
  +3.11557788944723627889e-002
  +3.16582914572864360103e-002
  +3.21608040201005057623e-002
  +3.26633165829145755144e-002
  +3.31658291457286452664e-002
  +3.36683417085427150184e-002
  +3.41708542713567847704e-002
  +3.46733668341708545224e-002
  +3.51758793969849242744e-002
  +3.56783919597989940264e-002
  +3.61809045226130707174e-002
  +3.66834170854271404694e-002
  +3.71859296482412102214e-002
  +3.76884422110552799734e-002
  +3.81909547738693497254e-002
  +3.86934673366834194774e-002
  +3.91959798994974892294e-002
  +3.96984924623115589815e-002
  +4.02010050251256287335e-002
  +4.07035175879396984855e-002
  +4.12060301507537682375e-002
  +4.17085427135678449284e-002
  +4.22110552763819146804e-002
  +4.27135678391959844324e-002
  +4.32160804020100541845e-002
  +4.37185929648241239365e-002
  +4.42211055276381936885e-002
  +4.47236180904522634405e-002
  +4.52261306532663331925e-002
  +4.57286432160804029445e-002
  +4.62311557788944726965e-002
  +4.67336683417085424486e-002
  +4.72361809045226191395e-002
  +4.77386934673366888915e-002
  +4.82412060301507586435e-002
  +4.87437185929648283955e-002
  +4.92462311557788981475e-002
  +4.97487437185929678995e-002
  +5.02512562814070376516e-002
  +5.07537688442211074036e-002
  +5.12562814070351771556e-002
  +5.17587939698492469076e-002
  +5.22613065326633166596e-002
  +5.27638190954773864116e-002
  +5.32663316582914631026e-002
  +5.37688442211055328546e-002
  +5.42713567839196026066e-002
  +5.47738693467336723586e-002
  +5.52763819095477421106e-002
  +5.57788944723618118626e-002
  +5.62814070351758816146e-002
  +5.67839195979899513667e-002
  +5.72864321608040211187e-002
  +5.77889447236180908707e-002
  +5.82914572864321606227e-002
  +5.87939698492462373136e-002
  +5.92964824120603070656e-002
  +5.97989949748743768176e-002
  +6.03015075376884465697e-002
  +6.08040201005025163217e-002
  +6.13065326633165860737e-002
  +6.18090452261306558257e-002
  +6.23115577889447255777e-002
  +6.28140703517588022686e-002
  +6.33165829145728720206e-002
  +6.38190954773869417727e-002
  +6.43216080402010115247e-002
  +6.48241206030150812767e-002
  +6.53266331658291510287e-002
  +6.58291457286432207807e-002
  +6.63316582914572905327e-002
  +6.68341708542713602847e-002
  +6.73366834170854300368e-002
  +6.78391959798994997888e-002
  +6.83417085427135695408e-002
  +6.88442211055276392928e-002
  +6.93467336683417090448e-002
  +6.98492462311557787968e-002
  +7.03517587939698485489e-002
  +7.08542713567839183009e-002
  +7.13567839195979880529e-002
  +7.18592964824120578049e-002
  +7.23618090452261414347e-002
  +7.28643216080402111867e-002
  +7.33668341708542809387e-002
  +7.38693467336683506907e-002
  +7.43718592964824204428e-002
  +7.48743718592964901948e-002
  +7.53768844221105599468e-002
  +7.58793969849246296988e-002
  +7.63819095477386994508e-002
  +7.68844221105527692028e-002
  +7.73869346733668389549e-002
  +7.78894472361809087069e-002
  +7.83919597989949784589e-002
  +7.88944723618090482109e-002
  +7.93969849246231179629e-002
  +7.98994974874371877149e-002
  +8.04020100502512574669e-002
  +8.09045226130653272190e-002
  +8.14070351758793969710e-002
  +8.19095477386934667230e-002
  +8.24120603015075364750e-002
  +8.29145728643216062270e-002
  +8.34170854271356898568e-002
  +8.39195979899497596088e-002
  +8.44221105527638293609e-002
  +8.49246231155778991129e-002
  +8.54271356783919688649e-002
  +8.59296482412060386169e-002
  +8.64321608040201083689e-002
  +8.69346733668341781209e-002
  +8.74371859296482478729e-002
  +8.79396984924623176250e-002
  +8.84422110552763873770e-002
  +8.89447236180904571290e-002
  +8.94472361809045268810e-002
  +8.99497487437185966330e-002
  +9.04522613065326663850e-002
  +9.09547738693467361371e-002
  +9.14572864321608058891e-002
  +9.19597989949748756411e-002
  +9.24623115577889453931e-002
  +9.29648241206030151451e-002
  +9.34673366834170848971e-002
  +9.39698492462311546491e-002
  +9.44723618090452382789e-002
  +9.49748743718593080310e-002
  +9.54773869346733777830e-002
  +9.59798994974874475350e-002
  +9.64824120603015172870e-002
  +9.69849246231155870390e-002
  +9.74874371859296567910e-002
  +9.79899497487437265431e-002
  +9.84924623115577962951e-002
  +9.89949748743718660471e-002
  +9.94974874371859357991e-002
  +1.00000000000000005551e-001
</indep>
<dep Kennlinie I>
  +7.43800000000000016698e-001
  +7.44805025125628183957e-001
  +7.45810050251256351217e-001
  +7.46815075376884407454e-001
  +7.47820100502512574714e-001
  +7.48825125628140741973e-001
  +7.49830150753768909233e-001
  +7.50835175879396965470e-001
  +7.51840201005025132730e-001
  +7.52845226130653299990e-001
  +7.53850251256281467249e-001
  +7.54855276381909523487e-001
  +7.55860301507537690746e-001
  +7.56865326633165858006e-001
  +7.57870351758794025265e-001
  +7.58875376884422081503e-001
  +7.59880402010050248762e-001
  +7.60885427135678416022e-001
  +7.61890452261306583281e-001
  +7.62895477386934639519e-001
  +7.63900502512562806778e-001
  +7.64905527638190974038e-001
  +7.65910552763819141298e-001
  +7.66915577889447197535e-001
  +7.67920603015075364794e-001
  +7.68925628140703532054e-001
  +7.69930653266331699314e-001
  +7.70935678391959866573e-001
  +7.71940703517587922811e-001
  +7.72945728643216090070e-001
  +7.73950753768844257330e-001
  +7.74955778894472424589e-001
  +7.75960804020100480827e-001
  +7.76965829145728648086e-001
  +7.77970854271356815346e-001
  +7.78975879396984982606e-001
  +7.79980904522613038843e-001
  +7.80985929648241206102e-001
  +7.81990954773869373362e-001
  +7.82995979899497540622e-001
  +7.84001005025125596859e-001
  +7.85006030150753764119e-001
  +7.86011055276381931378e-001
  +7.87016080402010098638e-001
  +7.88021105527638265897e-001
  +7.89026130653266322135e-001
  +7.90031155778894489394e-001
  +7.91036180904522656654e-001
  +7.92041206030150823914e-001
  +7.93046231155778880151e-001
  +7.94051256281407047410e-001
  +7.95056281407035214670e-001
  +7.96061306532663381930e-001
  +7.97066331658291438167e-001
  +7.98071356783919605427e-001
  +7.99076381909547772686e-001
  +8.00081407035175939946e-001
  +8.01086432160803996183e-001
  +8.02091457286432163443e-001
  +8.03096482412060330702e-001
  +8.04101507537688497962e-001
  +8.05106532663316554199e-001
  +8.06111557788944721459e-001
  +8.07116582914572888718e-001
  +8.08121608040201055978e-001
  +8.09126633165829112215e-001
  +8.10131658291457279475e-001
  +8.11136683417085446735e-001
  +8.12141708542713613994e-001
  +8.13146733668341781254e-001
  +8.14151758793969837491e-001
  +8.15156783919598004751e-001
  +8.16161809045226172010e-001
  +8.17166834170854339270e-001
  +8.18171859296482395507e-001
  +8.19176884422110562767e-001
  +8.20181909547738730026e-001
  +8.21186934673366897286e-001
  +8.22191959798994953523e-001
  +8.23196984924623120783e-001
  +8.24202010050251288042e-001
  +8.25207035175879455302e-001
  +8.26212060301507511539e-001
  +8.27217085427135678799e-001
  +8.28222110552763846059e-001
  +8.29227135678392013318e-001
  +8.30232160804020180578e-001
  +8.31237185929648236815e-001
  +8.32242211055276404075e-001
  +8.33247236180904571334e-001
  +8.34252261306532627572e-001
  +8.35257286432160794831e-001
  +8.36262311557788962091e-001
  +8.37267336683417129350e-001
  +8.38272361809045296610e-001
  +8.39277386934673352847e-001
  +8.40282412060301520107e-001
  +8.41287437185929687367e-001
  +8.42292462311557854626e-001
  +8.43297487437185910863e-001
  +8.44302512562814078123e-001
  +8.45307537688442245383e-001
  +8.46312562814070412642e-001
  +8.47317587939698468880e-001
  +8.48322613065326636139e-001
  +8.49327638190954803399e-001
  +8.50332663316582970658e-001
  +8.51337688442211026896e-001
  +8.52342713567839194155e-001
  +8.53347738693467361415e-001
  +8.54352763819095528675e-001
  +8.55357788944723695934e-001
  +8.56362814070351752171e-001
  +8.57367839195979919431e-001
  +8.58372864321608086691e-001
  +8.59377889447236142928e-001
  +8.60382914572864310188e-001
  +8.61387939698492477447e-001
  +8.62392964824120644707e-001
  +8.63397989949748811966e-001
  +8.64403015075376868204e-001
  +8.65408040201005035463e-001
  +8.66413065326633202723e-001
  +8.67418090452261369983e-001
  +8.68423115577889426220e-001
  +8.69428140703517593479e-001
  +8.70433165829145760739e-001
  +8.71438190954773927999e-001
  +8.72443216080402095258e-001
  +8.73448241206030151496e-001
  +8.74453266331658318755e-001
  +8.75458291457286486015e-001
  +8.76463316582914542252e-001
  +8.77468341708542709512e-001
  +8.78473366834170876771e-001
  +8.79478391959799044031e-001
  +8.80483417085427211290e-001
  +8.81488442211055267528e-001
  +8.82493467336683434787e-001
  +8.83498492462311602047e-001
  +8.84503517587939658284e-001
  +8.85508542713567825544e-001
  +8.86513567839195992804e-001
  +8.87518592964824160063e-001
  +8.88523618090452327323e-001
  +8.89528643216080494582e-001
  +8.90533668341708550820e-001
  +8.91538693467336718079e-001
  +8.92543718592964885339e-001
  +8.93548743718592941576e-001
  +8.94553768844221108836e-001
  +8.95558793969849276095e-001
  +8.96563819095477443355e-001
  +8.97568844221105610615e-001
  +8.98573869346733666852e-001
  +8.99578894472361834111e-001
  +9.00583919597990001371e-001
  +9.01588944723618057608e-001
  +9.02593969849246224868e-001
  +9.03598994974874392128e-001
  +9.04604020100502559387e-001
  +9.05609045226130726647e-001
  +9.06614070351758782884e-001
  +9.07619095477386950144e-001
  +9.08624120603015117403e-001
  +9.09629145728643173641e-001
  +9.10634170854271340900e-001
  +9.11639195979899508160e-001
  +9.12644221105527675419e-001
  +9.13649246231155842679e-001
  +9.14654271356784009939e-001
  +9.15659296482412066176e-001
  +9.16664321608040233436e-001
  +9.17669346733668400695e-001
  +9.18674371859296456932e-001
  +9.19679396984924624192e-001
  +9.20684422110552791452e-001
  +9.21689447236180958711e-001
  +9.22694472361809125971e-001
  +9.23699497487437182208e-001
  +9.24704522613065349468e-001
  +9.25709547738693516727e-001
  +9.26714572864321572965e-001
  +9.27719597989949740224e-001
  +9.28724623115577907484e-001
  +9.29729648241206074744e-001
  +9.30734673366834242003e-001
  +9.31739698492462298240e-001
  +9.32744723618090465500e-001
  +9.33749748743718632760e-001
  +9.34754773869346800019e-001
  +9.35759798994974856257e-001
  +9.36764824120603023516e-001
  +9.37769849246231190776e-001
  +9.38774874371859358035e-001
  +9.39779899497487525295e-001
  +9.40784924623115581532e-001
  +9.41789949748743748792e-001
  +9.42794974874371916052e-001
  +9.43799999999999972289e-001
</dep>
<dep Voltmeter.V I>
  +0.00000000000000000000e+000
  +6.24194238483580132737e-001
  +6.53795483213395423050e-001
  +6.71125411048808517833e-001
  +6.83431205016190923551e-001
  +6.92984054169478724816e-001
  +7.00795606783767732750e-001
  +7.07405506890362967276e-001
  +7.13135873898166350315e-001
  +7.18194481436600806745e-001
  +7.22723195884370284148e-001
  +7.26823204756976148921e-001
  +7.30569221174541594266e-001
  +7.34017983104755522561e-001
  +7.37213593867293903728e-001
  +7.40191015679595332166e-001
  +7.42978433405154792268e-001
  +7.45598900439687017894e-001
  +7.48071513436267432340e-001
  +7.50412268994410935896e-001
  +7.52634700350534480151e-001
  +7.54750358565602019745e-001
  +7.56769181670604473844e-001
  +7.58699781687798169294e-001
  +7.60549670521357912278e-001
  +7.62325439704834684207e-001
  +7.64032904873784945998e-001
  +7.65677222957902192668e-001
  +7.67262988049893790432e-001
  +7.68794310443854933546e-001
  +7.70274882268877414404e-001
  +7.71708032356706152832e-001
  +7.73096772395503006869e-001
  +7.74443835979311212547e-001
  +7.75751711826486722856e-001
  +7.77022672181655660317e-001
  +7.78258797215667486036e-001
  +7.79461996081762920063e-001
  +7.80634025163172151629e-001
  +7.81776503950034395984e-001
  +7.82890928905896066325e-001
  +7.83978685621739890266e-001
  +7.85041059505210192526e-001
  +7.86079245211926069814e-001
  +7.87094354992418088202e-001
  +7.88087426100957721964e-001
  +7.89059427390039092032e-001
  +7.90011265195576961595e-001
  +7.90943788602476605121e-001
  +7.91857794167247441841e-001
  +7.92754030163463241365e-001
  +7.93633200406819838690e-001
  +7.94495967708719552647e-001
  +7.95342957000921280120e-001
  +7.96174758168071816655e-001
  +7.96991928620358502933e-001
  +7.97794995634336201462e-001
  +7.98584458486566672875e-001
  +7.99360790401709597752e-001
  +8.00124440334056052926e-001
  +8.00875834599366953626e-001
  +8.01615378371802855817e-001
  +8.02343457059140785503e-001
  +8.03060437567969187533e-001
  +8.03766669469242023283e-001
  +8.04462486073459492886e-001
  +8.05148205423780183310e-001
  +8.05824131214445849025e-001
  +8.06490553641166174614e-001
  +8.07147750189420198907e-001
  +8.07795986366060425610e-001
  +8.08435516378995688846e-001
  +8.09066583769358804723e-001
  +8.09689422000065661678e-001
  +8.10304255004335560741e-001
  +8.10911297697388899763e-001
  +8.11510756454255854919e-001
  +8.12102829556361149876e-001
  +8.12687707609286436039e-001
  +8.13265573933916852134e-001
  +8.13836604932996587891e-001
  +8.14400970434919102559e-001
  +8.14958834016394684241e-001
  +8.15510353305601620733e-001
  +8.16055680267146699158e-001
  +8.16594961470194613540e-001
  +8.17128338340887938607e-001
  +8.17655947400196869701e-001
  +8.18177920488165622004e-001
  +8.18694384975490851986e-001
  +8.19205463963274760353e-001
  +8.19711276471758787388e-001
  +8.20211937618719244547e-001
  +8.20707558788232982572e-001
  +8.21198247790423718762e-001
  +8.21684109012736807465e-001
  +8.22165243563309555697e-001
  +8.22641749406909816855e-001
  +8.23113721493895611481e-001
  +8.23581251882632092709e-001
  +8.24044429855766868975e-001
  +8.24503342030698638254e-001
  +8.24958072464625158382e-001
  +8.25408702754454548511e-001
  +8.25855312131888452676e-001
  +8.26297977553969609232e-001
  +8.26736773789316425898e-001
  +8.27171773500332108142e-001
  +8.27603047321568530137e-001
  +8.28030663934493427192e-001
  +8.28454690138837435143e-001
  +8.28875190920712934251e-001
  +8.29292229517682444317e-001
  +8.29705867480925451929e-001
  +8.30116164734675865411e-001
  +8.30523179633060770755e-001
  +8.30926969014476601849e-001
  +8.31327588253634619520e-001
  +8.31725091311387387805e-001
  +8.32119530782458594054e-001
  +8.32510957941171914065e-001
  +8.32899422785273291225e-001
  +8.33284974077986406726e-001
  +8.33667659388290904765e-001
  +8.34047525129623101847e-001
  +8.34424616597004398244e-001
  +8.34798978002675440280e-001
  +8.35170652510346722686e-001
  +8.35539682268093275574e-001
  +8.35906108439963047019e-001
  +8.36269971236384135338e-001
  +8.36631309943383527639e-001
  +8.36990162950711602541e-001
  +8.37346567778903372314e-001
  +8.37700561105316654498e-001
  +8.38052178789216450916e-001
  +8.38401455895912639527e-001
  +8.38748426720044570892e-001
  +8.39093124807984813707e-001
  +8.39435582979460415132e-001
  +8.39775833348385791766e-001
  +8.40113907342951882207e-001
  +8.40449835725025184985e-001
  +8.40783648608834921490e-001
  +8.41115375479039806272e-001
  +8.41445045208147668347e-001
  +8.41772686073348652691e-001
  +8.42098325772768663278e-001
  +8.42421991441173134696e-001
  +8.42743709665140339204e-001
  +8.43063506497732650935e-001
  +8.43381407472673205739e-001
  +8.43697437618060819275e-001
  +8.44011621469630712866e-001
  +8.44323983083585916098e-001
  +8.44634546049011003532e-001
  +8.44943333499887927474e-001
  +8.45250368126733708785e-001
  +8.45555672187856210975e-001
  +8.45859267520265412088e-001
  +8.46161175550238064957e-001
  +8.46461417303555729852e-001
  +8.46760013415422951866e-001
  +8.47056984140080349022e-001
  +8.47352349360127043987e-001
  +8.47646128595558323582e-001
  +8.47938341012526297646e-001
  +8.48229005431844651497e-001
  +8.48518140337232384951e-001
  +8.48805763883319408514e-001
  +8.49091893903407668454e-001
  +8.49376547917017998834e-001
  +8.49659743137200829111e-001
  +8.49941496477642721707e-001
  +8.50221824559578509550e-001
  +8.50500743718482277167e-001
  +8.50778270010587478467e-001
  +8.51054419219216096160e-001
  +8.51329206860924725397e-001
  +8.51602648191484123963e-001
  +8.51874758211695781718e-001
  +8.52145551673027967787e-001
  +8.52415043083136092505e-001
  +8.52683246711178233213e-001
  +8.52950176593030184868e-001
  +8.53215846536341748774e-001
  +8.53480270125455020569e-001
  +8.53743460726196445876e-001
  +8.54005431490532873617e-001
  +8.54266195361119584639e-001
  +8.54525765075709653473e-001
  +8.54784153171461280607e-001
  +8.55041371989124998620e-001
  +8.55297433677128071672e-001
  +8.55552350195546651435e-001
  +8.55806133319981121588e-001
  +8.56058794645332077344e-001
  +8.56310345589474830597e-001
  +8.56560797396849649132e-001
  +8.56810161141952519870e-001
</dep>
<dep Ampermeter.I I>
  +0.00000000000000000000e+000
  +5.02512562814070402537e-004
  +1.00502512562814080507e-003
  +1.50753768844221120761e-003
  +2.01005025125628161015e-003
  +2.51256281407035179584e-003
  +3.01507537688442241522e-003
  +3.51758793969849260092e-003
  +4.02010050251256322029e-003
  +4.52261306532663383967e-003
  +5.02512562814070359168e-003
  +5.52763819095477421106e-003
  +6.03015075376884483044e-003
  +6.53266331658291371509e-003
  +7.03517587939698520183e-003
  +7.53768844221105582121e-003
  +8.04020100502512644058e-003
  +8.54271356783919619260e-003
  +9.04522613065326767934e-003
  +9.54773869346733743135e-003
  +1.00502512562814071834e-002
