<Qucs Dataset 0.0.19>
<indep A 2>
  +0.00000000000000000000e+000
  +5.00000000000000000000e+000
</indep>
<indep B 2>
  +0.00000000000000000000e+000
  +5.00000000000000000000e+000
</indep>
<dep V1.I A B>
  +0.00000000000000000000e+000
  +0.00000000000000000000e+000
  +0.00000000000000000000e+000
  +0.00000000000000000000e+000
</dep>
<dep V2.I A B>
  +0.00000000000000000000e+000
  +0.00000000000000000000e+000
  +0.00000000000000000000e+000
  +0.00000000000000000000e+000
</dep>
<dep V3.I A B>
  -2.97612592701171317783e-012
  -3.57121447665869770848e-012
  -3.96816812540672342655e-012
  -5.95225216385974138543e-012
</dep>
<dep _net1.V A B>
  +5.00000000000000000000e+000
  +5.00000000000000000000e+000
  +5.00000000000000000000e+000
  +5.00000000000000000000e+000
</dep>
<dep B.V A B>
  +0.00000000000000000000e+000
  +0.00000000000000000000e+000
  +5.00000000000000000000e+000
  +5.00000000000000000000e+000
</dep>
<dep _net0.V A B>
  +4.99999999379973747438e+000
  +4.99999998016086966146e+000
  +4.99999997519894900933e+000
  +9.92042035117828799289e-008
</dep>
<dep _net2.V A B>
  +2.49999999689986873719e+000
  +3.99965501062775707908e+000
  +2.48010508933230208045e-008
  +4.96021014483453838147e-008
</dep>
<dep A.V A B>
  +0.00000000000000000000e+000
  +5.00000000000000000000e+000
  +0.00000000000000000000e+000
  +5.00000000000000000000e+000
</dep>
<dep Y.V A B>
  +2.48010510547847059079e-008
  +2.48010511393492725184e-008
  +2.48010511701144786184e-008
  +4.99999997519894812115e+000
</dep>
