<Qucs Dataset 0.0.19>
<indep dtime 23>
  +0.00000000000e+000
  +2.00000000000e-011
  +4.00000000000e-011
  +6.00000000000e-011
  +7.00000000000e-011
  +2.00000000000e-009
  +2.01000000000e-009
  +2.02000000000e-009
  +2.04000000000e-009
  +2.06000000000e-009
  +2.07000000000e-009
  +4.00000000000e-009
  +4.01000000000e-009
  +4.02000000000e-009
  +4.04000000000e-009
  +4.06000000000e-009
  +4.07000000000e-009
  +6.00000000000e-009
  +6.01000000000e-009
  +6.02000000000e-009
  +6.04000000000e-009
  +6.06000000000e-009
  +6.07000000000e-009
</indep>
<dep _net0.X dtime>
  X
  1
  1
  1
  1
  1
  1
  0
  0
  0
  0
  0
  0
  1
  1
  1
  1
  1
  1
  0
  0
  0
  0
</dep>
<dep _net1.X dtime>
  X
  X
  0
  0
  0
  0
  0
  0
  1
  1
  1
  1
  1
  1
  0
  0
  0
  0
  0
  0
  1
  1
  1
</dep>
<dep q.X dtime>
  0
  0
  0
  0
  0
  1
  1
  1
  1
  1
  1
  0
  0
  0
  0
  0
  0
  1
  1
  1
  1
  1
  1
</dep>
<dep u.X dtime>
  X
  X
  X
  1
  1
  1
  1
  1
  1
  0
  0
  0
  0
  0
  0
  1
  1
  1
  1
  1
  1
  0
  0
</dep>
<dep y.X dtime>
  X
  X
  X
  X
  1
  1
  0
  0
  0
  0
  1
  1
  0
  0
  0
  0
  1
  1
  0
  0
  0
  0
  1
</dep>
